
T0958 000:684 SEGGER J-Link V4.90 Log File (0003ms, 0279ms total)
T0958 000:684 DLL Compiled: Jul 28 2014 10:35:20 (0003ms, 0279ms total)
T0958 000:684 Logging started @ 2022-06-29 22:57 (0003ms, 0279ms total)
T0958 000:687 JLINK_SetWarnOutHandler(...) (0000ms, 0279ms total)
T0958 000:687 JLINK_OpenEx(...)
Firmware: J-Link ARM V8 compiled Nov 28 2014 13:44:46
Hardware: V8.00
S/N: 305436307
Feature(s): RDI,FlashDL,FlashBP,JFlash,GDB  returns O.K. (0271ms, 0550ms total)
T0958 000:958 JLINK_SetErrorOutHandler(...) (0000ms, 0550ms total)
T0958 000:958 JLINK_ExecCommand("ProjectFile = "D:\Users\Administrator\Desktop\MCU SDK1.0.1\mcu sdk1.0.0\3.application\2.mcu test\USER\JLinkSettings.ini"", ...)  returns 0x00 (0002ms, 0552ms total)
T0958 000:980 JLINK_ExecCommand("Device = STM32F103ZE", ...)Device "STM32F103ZE" selected (512 KB flash, 64 KB RAM).  returns 0x00 (0028ms, 0580ms total)
T0958 001:008 JLINK_ExecCommand("DisableConnectionTimeout", ...)  returns 0x01 (0000ms, 0580ms total)
T0958 001:008 JLINK_GetHardwareVersion()  returns 0x13880 (0000ms, 0580ms total)
T0958 001:008 JLINK_GetDLLVersion()  returns 49000 (0000ms, 0580ms total)
T0958 001:008 JLINK_GetFirmwareString(...) (0000ms, 0580ms total)
T0958 001:045 JLINK_GetDLLVersion()  returns 49000 (0000ms, 0580ms total)
T0958 001:045 JLINK_GetCompileDateTime() (0000ms, 0580ms total)
T0958 001:051 JLINK_GetFirmwareString(...) (0000ms, 0580ms total)
T0958 001:057 JLINK_GetHardwareVersion()  returns 0x13880 (0000ms, 0580ms total)
T0958 001:098 JLINK_TIF_Select(JLINKARM_TIF_SWD)  returns 0x00 (0002ms, 0582ms total)
T0958 001:100 JLINK_SetSpeed(5000) (0000ms, 0582ms total)
T0958 001:100 JLINK_GetId() >0x108 TIF>Found SWD-DP with ID 0x1BA01477 >0x0D TIF> >0x28 TIF> >0x0D TIF> >0x28 TIF> >0x0D TIF> >0x21 TIF> >0x0D TIF> >0x28 TIF> >0x0D TIF> >0x28 TIF> >0x0D TIF> >0x28 TIF> >0x0D TIF> >0x21 TIF> >0x0D TIF> >0x21 TIF> >0x0D TIF> >0x28 TIF> >0x0D TIF> >0x21 TIF> >0x0D TIF> >0x21 TIF> >0x108 TIF>Found SWD-DP with ID 0x1BA01477 >0x0D TIF> >0x21 TIF> >0x0D TIF> >0x28 TIF> >0x0D TIF> >0x28 TIF> >0x0D TIF> >0x21 TIF> >0x0D TIF> >0x28 TIF> >0x0D TIF> >0x21 TIF> >0x0D TIF> >0x21 TIF>
 >0x0D TIF> >0x21 TIF> >0x0D TIF> >0x21 TIF> >0x0D TIF> >0x28 TIF> >0x0D TIF> >0x28 TIF> >0x0D TIF> >0x21 TIF> >0x0D TIF> >0x28 TIF> >0x0D TIF> >0x28 TIF> >0x0D TIF> >0x28 TIF> >0x0D TIF> >0x21 TIF> >0x0D TIF> >0x21 TIF> >0x0D TIF> >0x28 TIF> >0x0D TIF> >0x21 TIF> >0x0D TIF> >0x21 TIF>Found Cortex-M3 r1p1, Little endian. -- CPU_WriteMem(4 bytes @ 0xE0002000) -- CPU_ReadMem(4 bytes @ 0xE000EDF0) -- CPU_ReadMem(4 bytes @ 0xE0002000)FPUnit: 6 code (BP) slots and 2 literal slots
 -- CPU_ReadMem(4 bytes @ 0xE000EDFC) -- CPU_ReadMem(4 bytes @ 0xE0001000) -- CPU_WriteMem(4 bytes @ 0xE0001000) -- CPU_ReadMem(4 bytes @ 0xE00FF010)TPIU fitted. -- CPU_ReadMem(4 bytes @ 0xE00FF014)ETM fitted. -- CPU_ReadMem(4 bytes @ 0xE00FF018) >0x0D TIF> >0x21 TIF>  returns 0x1BA01477 (0095ms, 0677ms total)
T0958 001:195 JLINK_GetDLLVersion()  returns 49000 (0000ms, 0677ms total)
T0958 001:195 JLINK_CORE_GetFound()  returns 0x30000FF (0001ms, 0678ms total)
T0958 001:201 JLINK_ReadMem (0xE00FF000, 0x0020 Bytes, ...) -- CPU is running -- CPU_ReadMem(32 bytes @ 0xE00FF000) - Data: 03 F0 F0 FF 03 20 F0 FF 03 30 F0 FF 03 10 F0 FF ...  returns 0x00 (0001ms, 0679ms total)
T0958 001:202 JLINK_ReadMem (0xE000EFF0, 0x0010 Bytes, ...) -- CPU is running -- CPU_ReadMem(16 bytes @ 0xE000EFF0) - Data: 0D 00 00 00 E0 00 00 00 05 00 00 00 B1 00 00 00  returns 0x00 (0001ms, 0680ms total)
T0958 001:203 JLINK_ReadMem (0xE000EFD0, 0x0020 Bytes, ...) -- CPU is running -- CPU_ReadMem(32 bytes @ 0xE000EFD0) - Data: 04 00 00 00 00 00 00 00 00 00 00 00 00 00 00 00 ...  returns 0x00 (0001ms, 0681ms total)
T0958 001:204 JLINK_ReadMem (0xE0001FF0, 0x0010 Bytes, ...) -- CPU is running -- CPU_ReadMem(16 bytes @ 0xE0001FF0) - Data: 0D 00 00 00 E0 00 00 00 05 00 00 00 B1 00 00 00  returns 0x00 (0001ms, 0682ms total)
T0958 001:205 JLINK_ReadMem (0xE0001FD0, 0x0020 Bytes, ...) -- CPU is running -- CPU_ReadMem(32 bytes @ 0xE0001FD0) - Data: 04 00 00 00 00 00 00 00 00 00 00 00 00 00 00 00 ...  returns 0x00 (0000ms, 0682ms total)
T0958 001:205 JLINK_ReadMem (0xE0002FF0, 0x0010 Bytes, ...) -- CPU is running -- CPU_ReadMem(16 bytes @ 0xE0002FF0) - Data: 0D 00 00 00 E0 00 00 00 05 00 00 00 B1 00 00 00  returns 0x00 (0001ms, 0683ms total)
T0958 001:206 JLINK_ReadMem (0xE0002FD0, 0x0020 Bytes, ...) -- CPU is running -- CPU_ReadMem(32 bytes @ 0xE0002FD0) - Data: 04 00 00 00 00 00 00 00 00 00 00 00 00 00 00 00 ...  returns 0x00 (0001ms, 0684ms total)
T0958 001:207 JLINK_ReadMem (0xE0000FF0, 0x0010 Bytes, ...) -- CPU is running -- CPU_ReadMem(16 bytes @ 0xE0000FF0) - Data: 0D 00 00 00 E0 00 00 00 05 00 00 00 B1 00 00 00  returns 0x00 (0001ms, 0685ms total)
T0958 001:208 JLINK_ReadMem (0xE0000FD0, 0x0020 Bytes, ...) -- CPU is running -- CPU_ReadMem(32 bytes @ 0xE0000FD0) - Data: 04 00 00 00 00 00 00 00 00 00 00 00 00 00 00 00 ...  returns 0x00 (0001ms, 0686ms total)
T0958 001:209 JLINK_ReadMem (0xE0040FF0, 0x0010 Bytes, ...) -- CPU is running -- CPU_ReadMem(16 bytes @ 0xE0040FF0) - Data: 0D 00 00 00 90 00 00 00 05 00 00 00 B1 00 00 00  returns 0x00 (0001ms, 0687ms total)
T0958 001:210 JLINK_ReadMem (0xE0040FD0, 0x0020 Bytes, ...) -- CPU is running -- CPU_ReadMem(32 bytes @ 0xE0040FD0) - Data: 04 00 00 00 00 00 00 00 00 00 00 00 00 00 00 00 ...  returns 0x00 (0001ms, 0688ms total)
T0958 001:211 JLINK_ReadMem (0xE0041FF0, 0x0010 Bytes, ...) -- CPU is running -- CPU_ReadMem(16 bytes @ 0xE0041FF0) - Data: 0D 00 00 00 90 00 00 00 05 00 00 00 B1 00 00 00  returns 0x00 (0000ms, 0688ms total)
T0958 001:211 JLINK_ReadMem (0xE0041FD0, 0x0020 Bytes, ...) -- CPU is running -- CPU_ReadMem(32 bytes @ 0xE0041FD0) - Data: 04 00 00 00 00 00 00 00 00 00 00 00 00 00 00 00 ...  returns 0x00 (0001ms, 0689ms total)
T0958 001:212 JLINK_ReadMemU32(0xE000ED00, 0x0001 Items, ...) -- CPU is running -- CPU_ReadMem(4 bytes @ 0xE000ED00) - Data: 31 C2 1F 41  returns 0x01 (0001ms, 0690ms total)
T0958 001:213 JLINK_SetResetType(JLINKARM_RESET_TYPE_NORMAL)  returns JLINKARM_RESET_TYPE_NORMAL (0000ms, 0690ms total)
T0958 001:213 JLINK_Reset() -- CPU is running -- CPU_WriteMem(4 bytes @ 0xE000EDF0) -- CPU is running -- CPU_WriteMem(4 bytes @ 0xE000EDFC) >0x35 TIF> -- CPU is running -- CPU_WriteMem(4 bytes @ 0xE000ED0C) -- CPU is running -- CPU_ReadMem(4 bytes @ 0xE000EDF0) -- CPU is running -- CPU_ReadMem(4 bytes @ 0xE000EDF0) -- CPU is running -- CPU_WriteMem(4 bytes @ 0xE000EDF0) -- CPU is running -- CPU_WriteMem(4 bytes @ 0xE000EDFC) -- CPU is running -- CPU_ReadMem(4 bytes @ 0xE000EDF0)
 -- CPU_WriteMem(4 bytes @ 0xE0002000) -- CPU_ReadMem(4 bytes @ 0xE000EDFC) -- CPU_ReadMem(4 bytes @ 0xE0001000) (0022ms, 0712ms total)
T0958 001:235 JLINK_Halt()  returns 0x00 (0000ms, 0712ms total)
T0958 001:235 JLINK_IsHalted()  returns TRUE (0000ms, 0712ms total)
T0958 001:235 JLINK_ReadMemU32(0xE000EDF0, 0x0001 Items, ...) -- CPU_ReadMem(4 bytes @ 0xE000EDF0) - Data: 03 00 03 00  returns 0x01 (0001ms, 0713ms total)
T0958 001:236 JLINK_WriteU32(0xE000EDF0, 0xA05F0003) -- CPU_WriteMem(4 bytes @ 0xE000EDF0)  returns 0x00 (0001ms, 0714ms total)
T0958 001:237 JLINK_WriteU32(0xE000EDFC, 0x01000000) -- CPU_WriteMem(4 bytes @ 0xE000EDFC)  returns 0x00 (0001ms, 0715ms total)
T0958 001:255 JLINK_GetHWStatus(...)  returns 0x00 (0001ms, 0716ms total)
T0958 001:280 JLINK_GetNumBPUnits(Type = 0xFFFFFF00)  returns 0x06 (0000ms, 0716ms total)
T0958 001:280 JLINK_GetNumBPUnits(Type = 0xF0)  returns 0x2000 (0000ms, 0716ms total)
T0958 001:280 JLINK_GetNumWPUnits()  returns 0x04 (0000ms, 0716ms total)
T0958 001:293 JLINK_GetSpeed()  returns 0xFA0 (0000ms, 0716ms total)
T0958 001:302 JLINK_ReadMemU32(0xE000E004, 0x0001 Items, ...) -- CPU_ReadMem(4 bytes @ 0xE000E004) - Data: 01 00 00 00  returns 0x01 (0000ms, 0716ms total)
T0958 001:302 JLINK_ReadMemU32(0xE000E004, 0x0001 Items, ...) -- CPU_ReadMem(4 bytes @ 0xE000E004) - Data: 01 00 00 00  returns 0x01 (0000ms, 0716ms total)
T0958 001:302 JLINK_WriteMem(0xE0001000, 0x001C Bytes, ...) - Data: 01 00 00 00 00 00 00 00 00 00 00 00 00 00 00 00 ... -- CPU_WriteMem(28 bytes @ 0xE0001000)  returns 0x1C (0002ms, 0718ms total)
T0958 001:304 JLINK_ReadMem (0xE0001000, 0x001C Bytes, ...) -- CPU_ReadMem(28 bytes @ 0xE0001000) - Data: 01 00 00 40 00 00 00 00 00 00 00 00 00 00 00 00 ...  returns 0x00 (0001ms, 0719ms total)
T0958 001:305 JLINK_Halt()  returns 0x00 (0000ms, 0719ms total)
T0958 001:305 JLINK_IsHalted()  returns TRUE (0000ms, 0719ms total)
T0958 001:309 JLINK_WriteMem(0x20000000, 0x0164 Bytes, ...) - Data: 00 BE 0A E0 0D 78 2D 06 68 40 08 24 40 00 00 D3 ... -- CPU_WriteMem(356 bytes @ 0x20000000)  returns 0x164 (0003ms, 0722ms total)
T0958 001:312 JLINK_WriteReg(R0, 0x08000000)  returns 0x00 (0000ms, 0722ms total)
T0958 001:312 JLINK_WriteReg(R1, 0x00B71B00)  returns 0x00 (0000ms, 0722ms total)
T0958 001:312 JLINK_WriteReg(R2, 0x00000001)  returns 0x00 (0000ms, 0722ms total)
T0958 001:312 JLINK_WriteReg(R3, 0x00000000)  returns 0x00 (0000ms, 0722ms total)
T0958 001:312 JLINK_WriteReg(R4, 0x00000000)  returns 0x00 (0000ms, 0722ms total)
T0958 001:312 JLINK_WriteReg(R5, 0x00000000)  returns 0x00 (0000ms, 0722ms total)
T0958 001:312 JLINK_WriteReg(R6, 0x00000000)  returns 0x00 (0000ms, 0722ms total)
T0958 001:312 JLINK_WriteReg(R7, 0x00000000)  returns 0x00 (0000ms, 0722ms total)
T0958 001:312 JLINK_WriteReg(R8, 0x00000000)  returns 0x00 (0000ms, 0722ms total)
T0958 001:312 JLINK_WriteReg(R9, 0x20000160)  returns 0x00 (0000ms, 0722ms total)
T0958 001:312 JLINK_WriteReg(R10, 0x00000000)  returns 0x00 (0000ms, 0722ms total)
T0958 001:312 JLINK_WriteReg(R11, 0x00000000)  returns 0x00 (0000ms, 0722ms total)
T0958 001:312 JLINK_WriteReg(R12, 0x00000000)  returns 0x00 (0000ms, 0722ms total)
T0958 001:312 JLINK_WriteReg(R13 (SP), 0x20001000)  returns 0x00 (0000ms, 0722ms total)
T0958 001:312 JLINK_WriteReg(R14, 0x20000001)  returns 0x00 (0000ms, 0722ms total)
T0958 001:312 JLINK_WriteReg(R15 (PC), 0x20000038)  returns 0x00 (0000ms, 0722ms total)
T0958 001:312 JLINK_WriteReg(XPSR, 0x01000000)  returns 0x00 (0000ms, 0722ms total)
T0958 001:312 JLINK_WriteReg(MSP, 0x20001000)  returns 0x00 (0000ms, 0722ms total)
T0958 001:312 JLINK_WriteReg(PSP, 0x20001000)  returns 0x00 (0000ms, 0722ms total)
T0958 001:312 JLINK_WriteReg(CFBP, 0x00000000)  returns 0x00 (0000ms, 0722ms total)
T0958 001:312 JLINK_SetBPEx(Addr = 0x20000000, Type = 0xFFFFFFF2) -- CPU_ReadMem(2 bytes @ 0x20000000)  returns 0x00000001 (0001ms, 0723ms total)
T0958 001:313 JLINK_Go() -- CPU_WriteMem(2 bytes @ 0x20000000) -- CPU_WriteMem(4 bytes @ 0xE0002008) -- CPU_WriteMem(4 bytes @ 0xE000200C) -- CPU_WriteMem(4 bytes @ 0xE0002010) -- CPU_WriteMem(4 bytes @ 0xE0002014) -- CPU_WriteMem(4 bytes @ 0xE0002018) -- CPU_WriteMem(4 bytes @ 0xE000201C) -- CPU_WriteMem(4 bytes @ 0xE0001004) (0008ms, 0731ms total)
T0958 001:321 JLINK_IsHalted() -- CPU_ReadMem(2 bytes @ 0x20000000)  returns TRUE (0004ms, 0735ms total)
T0958 001:325 JLINK_ReadReg(R15 (PC))  returns 0x20000000 (0000ms, 0731ms total)
T0958 001:325 JLINK_ClrBPEx(BPHandle = 0x00000001)  returns 0x00 (0000ms, 0731ms total)
T0958 001:325 JLINK_ReadReg(R0)  returns 0x00000000 (0000ms, 0731ms total)
T0958 001:326 JLINK_WriteReg(R0, 0x08000000)  returns 0x00 (0000ms, 0731ms total)
T0958 001:326 JLINK_WriteReg(R1, 0x00B71B00)  returns 0x00 (0000ms, 0731ms total)
T0958 001:326 JLINK_WriteReg(R2, 0x00000001)  returns 0x00 (0000ms, 0731ms total)
T0958 001:326 JLINK_WriteReg(R3, 0x00000000)  returns 0x00 (0000ms, 0731ms total)
T0958 001:326 JLINK_WriteReg(R4, 0x00000000)  returns 0x00 (0000ms, 0731ms total)
T0958 001:326 JLINK_WriteReg(R5, 0x00000000)  returns 0x00 (0000ms, 0731ms total)
T0958 001:326 JLINK_WriteReg(R6, 0x00000000)  returns 0x00 (0000ms, 0731ms total)
T0958 001:326 JLINK_WriteReg(R7, 0x00000000)  returns 0x00 (0000ms, 0731ms total)
T0958 001:326 JLINK_WriteReg(R8, 0x00000000)  returns 0x00 (0000ms, 0731ms total)
T0958 001:326 JLINK_WriteReg(R9, 0x20000160)  returns 0x00 (0000ms, 0731ms total)
T0958 001:326 JLINK_WriteReg(R10, 0x00000000)  returns 0x00 (0000ms, 0731ms total)
T0958 001:326 JLINK_WriteReg(R11, 0x00000000)  returns 0x00 (0000ms, 0731ms total)
T0958 001:326 JLINK_WriteReg(R12, 0x00000000)  returns 0x00 (0000ms, 0731ms total)
T0958 001:326 JLINK_WriteReg(R13 (SP), 0x20001000)  returns 0x00 (0000ms, 0731ms total)
T0958 001:326 JLINK_WriteReg(R14, 0x20000001)  returns 0x00 (0000ms, 0731ms total)
T0958 001:326 JLINK_WriteReg(R15 (PC), 0x2000007C)  returns 0x00 (0000ms, 0731ms total)
T0958 001:326 JLINK_WriteReg(XPSR, 0x01000000)  returns 0x00 (0000ms, 0731ms total)
T0958 001:326 JLINK_WriteReg(MSP, 0x20001000)  returns 0x00 (0000ms, 0731ms total)
T0958 001:326 JLINK_WriteReg(PSP, 0x20001000)  returns 0x00 (0000ms, 0731ms total)
T0958 001:326 JLINK_WriteReg(CFBP, 0x00000000)  returns 0x00 (0000ms, 0731ms total)
T0958 001:326 JLINK_SetBPEx(Addr = 0x20000000, Type = 0xFFFFFFF2)  returns 0x00000002 (0000ms, 0731ms total)
T0958 001:326 JLINK_Go() (0002ms, 0733ms total)
T0958 001:328 JLINK_IsHalted()  returns FALSE (0001ms, 0734ms total)
T0958 001:542 JLINK_IsHalted() -- CPU_ReadMem(2 bytes @ 0x20000000)  returns TRUE (0003ms, 0736ms total)
T0958 001:545 JLINK_ReadReg(R15 (PC))  returns 0x20000000 (0000ms, 0733ms total)
T0958 001:545 JLINK_ClrBPEx(BPHandle = 0x00000002)  returns 0x00 (0000ms, 0733ms total)
T0958 001:545 JLINK_ReadReg(R0)  returns 0x00000000 (0000ms, 0733ms total)
T0958 001:597 JLINK_WriteReg(R0, 0x00000001)  returns 0x00 (0000ms, 0733ms total)
T0958 001:597 JLINK_WriteReg(R1, 0x00B71B00)  returns 0x00 (0001ms, 0734ms total)
T0958 001:598 JLINK_WriteReg(R2, 0x00000001)  returns 0x00 (0000ms, 0734ms total)
T0958 001:598 JLINK_WriteReg(R3, 0x00000000)  returns 0x00 (0000ms, 0734ms total)
T0958 001:598 JLINK_WriteReg(R4, 0x00000000)  returns 0x00 (0000ms, 0734ms total)
T0958 001:598 JLINK_WriteReg(R5, 0x00000000)  returns 0x00 (0000ms, 0734ms total)
T0958 001:598 JLINK_WriteReg(R6, 0x00000000)  returns 0x00 (0000ms, 0734ms total)
T0958 001:598 JLINK_WriteReg(R7, 0x00000000)  returns 0x00 (0000ms, 0734ms total)
T0958 001:598 JLINK_WriteReg(R8, 0x00000000)  returns 0x00 (0000ms, 0734ms total)
T0958 001:598 JLINK_WriteReg(R9, 0x20000160)  returns 0x00 (0000ms, 0734ms total)
T0958 001:598 JLINK_WriteReg(R10, 0x00000000)  returns 0x00 (0000ms, 0734ms total)
T0958 001:598 JLINK_WriteReg(R11, 0x00000000)  returns 0x00 (0000ms, 0734ms total)
T0958 001:598 JLINK_WriteReg(R12, 0x00000000)  returns 0x00 (0000ms, 0734ms total)
T0958 001:598 JLINK_WriteReg(R13 (SP), 0x20001000)  returns 0x00 (0000ms, 0734ms total)
T0958 001:598 JLINK_WriteReg(R14, 0x20000001)  returns 0x00 (0000ms, 0734ms total)
T0958 001:598 JLINK_WriteReg(R15 (PC), 0x2000006A)  returns 0x00 (0000ms, 0734ms total)
T0958 001:598 JLINK_WriteReg(XPSR, 0x01000000)  returns 0x00 (0000ms, 0734ms total)
T0958 001:598 JLINK_WriteReg(MSP, 0x20001000)  returns 0x00 (0000ms, 0734ms total)
T0958 001:598 JLINK_WriteReg(PSP, 0x20001000)  returns 0x00 (0000ms, 0734ms total)
T0958 001:598 JLINK_WriteReg(CFBP, 0x00000000)  returns 0x00 (0000ms, 0734ms total)
T0958 001:598 JLINK_SetBPEx(Addr = 0x20000000, Type = 0xFFFFFFF2)  returns 0x00000003 (0000ms, 0734ms total)
T0958 001:598 JLINK_Go() (0002ms, 0736ms total)
T0958 001:600 JLINK_IsHalted() -- CPU_ReadMem(2 bytes @ 0x20000000)  returns TRUE (0004ms, 0740ms total)
T0958 001:604 JLINK_ReadReg(R15 (PC))  returns 0x20000000 (0000ms, 0736ms total)
T0958 001:604 JLINK_ClrBPEx(BPHandle = 0x00000003)  returns 0x00 (0000ms, 0736ms total)
T0958 001:604 JLINK_ReadReg(R0)  returns 0x00000000 (0000ms, 0736ms total)
T0958 001:613 JLINK_WriteMem(0x20000000, 0x0164 Bytes, ...) - Data: 00 BE 0A E0 0D 78 2D 06 68 40 08 24 40 00 00 D3 ... -- CPU_WriteMem(356 bytes @ 0x20000000)  returns 0x164 (0003ms, 0739ms total)
T0958 001:616 JLINK_WriteReg(R0, 0x08000000)  returns 0x00 (0000ms, 0739ms total)
T0958 001:616 JLINK_WriteReg(R1, 0x00B71B00)  returns 0x00 (0000ms, 0739ms total)
T0958 001:616 JLINK_WriteReg(R2, 0x00000002)  returns 0x00 (0000ms, 0739ms total)
T0958 001:616 JLINK_WriteReg(R3, 0x00000000)  returns 0x00 (0000ms, 0739ms total)
T0958 001:616 JLINK_WriteReg(R4, 0x00000000)  returns 0x00 (0000ms, 0739ms total)
T0958 001:616 JLINK_WriteReg(R5, 0x00000000)  returns 0x00 (0000ms, 0739ms total)
T0958 001:616 JLINK_WriteReg(R6, 0x00000000)  returns 0x00 (0000ms, 0739ms total)
T0958 001:616 JLINK_WriteReg(R7, 0x00000000)  returns 0x00 (0000ms, 0739ms total)
T0958 001:616 JLINK_WriteReg(R8, 0x00000000)  returns 0x00 (0000ms, 0739ms total)
T0958 001:616 JLINK_WriteReg(R9, 0x20000160)  returns 0x00 (0000ms, 0739ms total)
T0958 001:616 JLINK_WriteReg(R10, 0x00000000)  returns 0x00 (0000ms, 0739ms total)
T0958 001:616 JLINK_WriteReg(R11, 0x00000000)  returns 0x00 (0000ms, 0739ms total)
T0958 001:616 JLINK_WriteReg(R12, 0x00000000)  returns 0x00 (0000ms, 0739ms total)
T0958 001:616 JLINK_WriteReg(R13 (SP), 0x20001000)  returns 0x00 (0000ms, 0739ms total)
T0958 001:616 JLINK_WriteReg(R14, 0x20000001)  returns 0x00 (0000ms, 0739ms total)
T0958 001:616 JLINK_WriteReg(R15 (PC), 0x20000038)  returns 0x00 (0000ms, 0739ms total)
T0958 001:616 JLINK_WriteReg(XPSR, 0x01000000)  returns 0x00 (0000ms, 0739ms total)
T0958 001:616 JLINK_WriteReg(MSP, 0x20001000)  returns 0x00 (0000ms, 0739ms total)
T0958 001:616 JLINK_WriteReg(PSP, 0x20001000)  returns 0x00 (0000ms, 0739ms total)
T0958 001:616 JLINK_WriteReg(CFBP, 0x00000000)  returns 0x00 (0000ms, 0739ms total)
T0958 001:616 JLINK_SetBPEx(Addr = 0x20000000, Type = 0xFFFFFFF2) -- CPU_ReadMem(2 bytes @ 0x20000000)  returns 0x00000004 (0001ms, 0740ms total)
T0958 001:617 JLINK_Go() -- CPU_WriteMem(2 bytes @ 0x20000000) (0002ms, 0742ms total)
T0958 001:619 JLINK_IsHalted() -- CPU_ReadMem(2 bytes @ 0x20000000)  returns TRUE (0005ms, 0747ms total)
T0958 001:624 JLINK_ReadReg(R15 (PC))  returns 0x20000000 (0000ms, 0742ms total)
T0958 001:624 JLINK_ClrBPEx(BPHandle = 0x00000004)  returns 0x00 (0000ms, 0742ms total)
T0958 001:624 JLINK_ReadReg(R0)  returns 0x00000000 (0000ms, 0742ms total)
T0958 001:624 JLINK_WriteMem(0x20000164, 0x0400 Bytes, ...) - Data: 18 22 00 20 45 21 00 08 01 22 00 08 03 22 00 08 ... -- CPU_WriteMem(1024 bytes @ 0x20000164)  returns 0x400 (0007ms, 0749ms total)
T0958 001:631 JLINK_WriteReg(R0, 0x08002000)  returns 0x00 (0000ms, 0749ms total)
T0958 001:631 JLINK_WriteReg(R1, 0x00000400)  returns 0x00 (0000ms, 0749ms total)
T0958 001:631 JLINK_WriteReg(R2, 0x20000164)  returns 0x00 (0000ms, 0749ms total)
T0958 001:631 JLINK_WriteReg(R3, 0x00000000)  returns 0x00 (0000ms, 0749ms total)
T0958 001:631 JLINK_WriteReg(R4, 0x00000000)  returns 0x00 (0000ms, 0749ms total)
T0958 001:631 JLINK_WriteReg(R5, 0x00000000)  returns 0x00 (0000ms, 0749ms total)
T0958 001:631 JLINK_WriteReg(R6, 0x00000000)  returns 0x00 (0000ms, 0749ms total)
T0958 001:631 JLINK_WriteReg(R7, 0x00000000)  returns 0x00 (0000ms, 0749ms total)
T0958 001:631 JLINK_WriteReg(R8, 0x00000000)  returns 0x00 (0000ms, 0749ms total)
T0958 001:631 JLINK_WriteReg(R9, 0x20000160)  returns 0x00 (0000ms, 0749ms total)
T0958 001:631 JLINK_WriteReg(R10, 0x00000000)  returns 0x00 (0000ms, 0749ms total)
T0958 001:631 JLINK_WriteReg(R11, 0x00000000)  returns 0x00 (0000ms, 0749ms total)
T0958 001:631 JLINK_WriteReg(R12, 0x00000000)  returns 0x00 (0000ms, 0749ms total)
T0958 001:631 JLINK_WriteReg(R13 (SP), 0x20001000)  returns 0x00 (0000ms, 0749ms total)
T0958 001:631 JLINK_WriteReg(R14, 0x20000001)  returns 0x00 (0000ms, 0749ms total)
T0958 001:631 JLINK_WriteReg(R15 (PC), 0x200000F4)  returns 0x00 (0000ms, 0749ms total)
T0958 001:631 JLINK_WriteReg(XPSR, 0x01000000)  returns 0x00 (0000ms, 0749ms total)
T0958 001:631 JLINK_WriteReg(MSP, 0x20001000)  returns 0x00 (0000ms, 0749ms total)
T0958 001:631 JLINK_WriteReg(PSP, 0x20001000)  returns 0x00 (0000ms, 0749ms total)
T0958 001:631 JLINK_WriteReg(CFBP, 0x00000000)  returns 0x00 (0000ms, 0749ms total)
T0958 001:631 JLINK_SetBPEx(Addr = 0x20000000, Type = 0xFFFFFFF2)  returns 0x00000005 (0000ms, 0749ms total)
T0958 001:631 JLINK_Go() (0002ms, 0751ms total)
T0958 001:633 JLINK_IsHalted()  returns FALSE (0001ms, 0752ms total)
T0958 001:744 JLINK_IsHalted() -- CPU_ReadMem(2 bytes @ 0x20000000)  returns TRUE (0004ms, 0755ms total)
T0958 001:748 JLINK_ReadReg(R15 (PC))  returns 0x20000000 (0000ms, 0751ms total)
T0958 001:748 JLINK_ClrBPEx(BPHandle = 0x00000005)  returns 0x00 (0000ms, 0751ms total)
T0958 001:748 JLINK_ReadReg(R0)  returns 0x00000000 (0000ms, 0751ms total)
T0958 001:749 JLINK_WriteMem(0x20000164, 0x0400 Bytes, ...) - Data: 68 46 00 F0 DD FF 0E BD 08 B5 4F F4 C0 60 00 F0 ... -- CPU_WriteMem(1024 bytes @ 0x20000164)  returns 0x400 (0007ms, 0758ms total)
T0958 001:756 JLINK_WriteReg(R0, 0x08002400)  returns 0x00 (0000ms, 0758ms total)
T0958 001:756 JLINK_WriteReg(R1, 0x00000400)  returns 0x00 (0000ms, 0758ms total)
T0958 001:756 JLINK_WriteReg(R2, 0x20000164)  returns 0x00 (0000ms, 0758ms total)
T0958 001:756 JLINK_WriteReg(R3, 0x00000000)  returns 0x00 (0000ms, 0758ms total)
T0958 001:756 JLINK_WriteReg(R4, 0x00000000)  returns 0x00 (0000ms, 0758ms total)
T0958 001:756 JLINK_WriteReg(R5, 0x00000000)  returns 0x00 (0000ms, 0758ms total)
T0958 001:756 JLINK_WriteReg(R6, 0x00000000)  returns 0x00 (0000ms, 0758ms total)
T0958 001:756 JLINK_WriteReg(R7, 0x00000000)  returns 0x00 (0000ms, 0758ms total)
T0958 001:756 JLINK_WriteReg(R8, 0x00000000)  returns 0x00 (0000ms, 0758ms total)
T0958 001:756 JLINK_WriteReg(R9, 0x20000160)  returns 0x00 (0000ms, 0758ms total)
T0958 001:756 JLINK_WriteReg(R10, 0x00000000)  returns 0x00 (0000ms, 0758ms total)
T0958 001:756 JLINK_WriteReg(R11, 0x00000000)  returns 0x00 (0000ms, 0758ms total)
T0958 001:756 JLINK_WriteReg(R12, 0x00000000)  returns 0x00 (0000ms, 0758ms total)
T0958 001:756 JLINK_WriteReg(R13 (SP), 0x20001000)  returns 0x00 (0000ms, 0758ms total)
T0958 001:756 JLINK_WriteReg(R14, 0x20000001)  returns 0x00 (0000ms, 0758ms total)
T0958 001:756 JLINK_WriteReg(R15 (PC), 0x200000F4)  returns 0x00 (0000ms, 0758ms total)
T0958 001:756 JLINK_WriteReg(XPSR, 0x01000000)  returns 0x00 (0000ms, 0758ms total)
T0958 001:756 JLINK_WriteReg(MSP, 0x20001000)  returns 0x00 (0000ms, 0758ms total)
T0958 001:756 JLINK_WriteReg(PSP, 0x20001000)  returns 0x00 (0000ms, 0758ms total)
T0958 001:756 JLINK_WriteReg(CFBP, 0x00000000)  returns 0x00 (0000ms, 0758ms total)
T0958 001:756 JLINK_SetBPEx(Addr = 0x20000000, Type = 0xFFFFFFF2)  returns 0x00000006 (0000ms, 0758ms total)
T0958 001:756 JLINK_Go() (0003ms, 0761ms total)
T0958 001:759 JLINK_IsHalted()  returns FALSE (0001ms, 0762ms total)
T0958 001:797 JLINK_IsHalted() -- CPU_ReadMem(2 bytes @ 0x20000000)  returns TRUE (0004ms, 0765ms total)
T0958 001:801 JLINK_ReadReg(R15 (PC))  returns 0x20000000 (0000ms, 0761ms total)
T0958 001:801 JLINK_ClrBPEx(BPHandle = 0x00000006)  returns 0x00 (0000ms, 0761ms total)
T0958 001:801 JLINK_ReadReg(R0)  returns 0x00000000 (0000ms, 0761ms total)
T0958 001:802 JLINK_WriteMem(0x20000164, 0x0400 Bytes, ...) - Data: CF 49 09 68 21 F4 80 31 CD 4A 11 60 11 46 09 68 ... -- CPU_WriteMem(1024 bytes @ 0x20000164)  returns 0x400 (0007ms, 0768ms total)
T0958 001:809 JLINK_WriteReg(R0, 0x08002800)  returns 0x00 (0000ms, 0768ms total)
T0958 001:809 JLINK_WriteReg(R1, 0x00000400)  returns 0x00 (0000ms, 0768ms total)
T0958 001:809 JLINK_WriteReg(R2, 0x20000164)  returns 0x00 (0000ms, 0768ms total)
T0958 001:809 JLINK_WriteReg(R3, 0x00000000)  returns 0x00 (0000ms, 0768ms total)
T0958 001:809 JLINK_WriteReg(R4, 0x00000000)  returns 0x00 (0000ms, 0768ms total)
T0958 001:809 JLINK_WriteReg(R5, 0x00000000)  returns 0x00 (0000ms, 0768ms total)
T0958 001:809 JLINK_WriteReg(R6, 0x00000000)  returns 0x00 (0000ms, 0768ms total)
T0958 001:809 JLINK_WriteReg(R7, 0x00000000)  returns 0x00 (0000ms, 0768ms total)
T0958 001:809 JLINK_WriteReg(R8, 0x00000000)  returns 0x00 (0000ms, 0768ms total)
T0958 001:809 JLINK_WriteReg(R9, 0x20000160)  returns 0x00 (0000ms, 0768ms total)
T0958 001:809 JLINK_WriteReg(R10, 0x00000000)  returns 0x00 (0000ms, 0768ms total)
T0958 001:809 JLINK_WriteReg(R11, 0x00000000)  returns 0x00 (0000ms, 0768ms total)
T0958 001:809 JLINK_WriteReg(R12, 0x00000000)  returns 0x00 (0000ms, 0768ms total)
T0958 001:809 JLINK_WriteReg(R13 (SP), 0x20001000)  returns 0x00 (0000ms, 0768ms total)
T0958 001:809 JLINK_WriteReg(R14, 0x20000001)  returns 0x00 (0000ms, 0768ms total)
T0958 001:809 JLINK_WriteReg(R15 (PC), 0x200000F4)  returns 0x00 (0000ms, 0768ms total)
T0958 001:809 JLINK_WriteReg(XPSR, 0x01000000)  returns 0x00 (0000ms, 0768ms total)
T0958 001:809 JLINK_WriteReg(MSP, 0x20001000)  returns 0x00 (0000ms, 0768ms total)
T0958 001:809 JLINK_WriteReg(PSP, 0x20001000)  returns 0x00 (0000ms, 0768ms total)
T0958 001:809 JLINK_WriteReg(CFBP, 0x00000000)  returns 0x00 (0001ms, 0769ms total)
T0958 001:810 JLINK_SetBPEx(Addr = 0x20000000, Type = 0xFFFFFFF2)  returns 0x00000007 (0000ms, 0769ms total)
T0958 001:810 JLINK_Go() (0002ms, 0771ms total)
T0958 001:812 JLINK_IsHalted()  returns FALSE (0001ms, 0772ms total)
T0958 001:817 JLINK_IsHalted()  returns FALSE (0001ms, 0772ms total)
T0958 001:820 JLINK_IsHalted()  returns FALSE (0000ms, 0771ms total)
T0958 001:822 JLINK_IsHalted()  returns FALSE (0000ms, 0771ms total)
T0958 001:880 JLINK_IsHalted() -- CPU_ReadMem(2 bytes @ 0x20000000)  returns TRUE (0004ms, 0775ms total)
T0958 001:884 JLINK_ReadReg(R15 (PC))  returns 0x20000000 (0000ms, 0771ms total)
T0958 001:884 JLINK_ClrBPEx(BPHandle = 0x00000007)  returns 0x00 (0000ms, 0771ms total)
T0958 001:884 JLINK_ReadReg(R0)  returns 0x00000000 (0000ms, 0771ms total)
T0958 001:887 JLINK_WriteMem(0x20000164, 0x0400 Bytes, ...) - Data: 80 15 FF F7 65 FF 00 21 A0 15 FF F7 61 FF 10 BD ... -- CPU_WriteMem(1024 bytes @ 0x20000164)  returns 0x400 (0007ms, 0778ms total)
T0958 001:894 JLINK_WriteReg(R0, 0x08002C00)  returns 0x00 (0000ms, 0778ms total)
T0958 001:894 JLINK_WriteReg(R1, 0x00000400)  returns 0x00 (0000ms, 0778ms total)
T0958 001:894 JLINK_WriteReg(R2, 0x20000164)  returns 0x00 (0000ms, 0778ms total)
T0958 001:894 JLINK_WriteReg(R3, 0x00000000)  returns 0x00 (0000ms, 0778ms total)
T0958 001:894 JLINK_WriteReg(R4, 0x00000000)  returns 0x00 (0000ms, 0778ms total)
T0958 001:894 JLINK_WriteReg(R5, 0x00000000)  returns 0x00 (0000ms, 0778ms total)
T0958 001:894 JLINK_WriteReg(R6, 0x00000000)  returns 0x00 (0000ms, 0778ms total)
T0958 001:894 JLINK_WriteReg(R7, 0x00000000)  returns 0x00 (0000ms, 0778ms total)
T0958 001:894 JLINK_WriteReg(R8, 0x00000000)  returns 0x00 (0000ms, 0778ms total)
T0958 001:894 JLINK_WriteReg(R9, 0x20000160)  returns 0x00 (0000ms, 0778ms total)
T0958 001:894 JLINK_WriteReg(R10, 0x00000000)  returns 0x00 (0000ms, 0778ms total)
T0958 001:894 JLINK_WriteReg(R11, 0x00000000)  returns 0x00 (0000ms, 0778ms total)
T0958 001:894 JLINK_WriteReg(R12, 0x00000000)  returns 0x00 (0000ms, 0778ms total)
T0958 001:894 JLINK_WriteReg(R13 (SP), 0x20001000)  returns 0x00 (0000ms, 0778ms total)
T0958 001:894 JLINK_WriteReg(R14, 0x20000001)  returns 0x00 (0000ms, 0778ms total)
T0958 001:894 JLINK_WriteReg(R15 (PC), 0x200000F4)  returns 0x00 (0000ms, 0778ms total)
T0958 001:894 JLINK_WriteReg(XPSR, 0x01000000)  returns 0x00 (0000ms, 0778ms total)
T0958 001:894 JLINK_WriteReg(MSP, 0x20001000)  returns 0x00 (0000ms, 0778ms total)
T0958 001:894 JLINK_WriteReg(PSP, 0x20001000)  returns 0x00 (0000ms, 0778ms total)
T0958 001:894 JLINK_WriteReg(CFBP, 0x00000000)  returns 0x00 (0000ms, 0778ms total)
T0958 001:894 JLINK_SetBPEx(Addr = 0x20000000, Type = 0xFFFFFFF2)  returns 0x00000008 (0000ms, 0778ms total)
T0958 001:894 JLINK_Go() (0002ms, 0780ms total)
T0958 001:896 JLINK_IsHalted()  returns FALSE (0001ms, 0781ms total)
T0958 001:899 JLINK_IsHalted()  returns FALSE (0000ms, 0780ms total)
T0958 001:904 JLINK_IsHalted()  returns FALSE (0000ms, 0780ms total)
T0958 001:906 JLINK_IsHalted()  returns FALSE (0000ms, 0780ms total)
T0958 001:908 JLINK_IsHalted()  returns FALSE (0000ms, 0780ms total)
T0958 001:910 JLINK_IsHalted()  returns FALSE (0001ms, 0781ms total)
T0958 001:913 JLINK_IsHalted()  returns FALSE (0000ms, 0780ms total)
T0958 001:915 JLINK_IsHalted()  returns FALSE (0000ms, 0780ms total)
T0958 001:917 JLINK_IsHalted()  returns FALSE (0000ms, 0780ms total)
T0958 001:919 JLINK_IsHalted()  returns FALSE (0000ms, 0780ms total)
T0958 001:921 JLINK_IsHalted()  returns FALSE (0001ms, 0781ms total)
T0958 001:924 JLINK_IsHalted()  returns FALSE (0001ms, 0781ms total)
T0958 001:927 JLINK_IsHalted() -- CPU_ReadMem(2 bytes @ 0x20000000)  returns TRUE (0003ms, 0783ms total)
T0958 001:930 JLINK_ReadReg(R15 (PC))  returns 0x20000000 (0000ms, 0780ms total)
T0958 001:930 JLINK_ClrBPEx(BPHandle = 0x00000008)  returns 0x00 (0000ms, 0780ms total)
T0958 001:930 JLINK_ReadReg(R0)  returns 0x00000000 (0000ms, 0780ms total)
T0958 001:931 JLINK_WriteMem(0x20000164, 0x0400 Bytes, ...) - Data: 00 EB 09 10 64 21 B0 FB F1 F0 00 F0 0F 00 04 43 ... -- CPU_WriteMem(1024 bytes @ 0x20000164)  returns 0x400 (0007ms, 0787ms total)
T0958 001:938 JLINK_WriteReg(R0, 0x08003000)  returns 0x00 (0000ms, 0787ms total)
T0958 001:938 JLINK_WriteReg(R1, 0x00000400)  returns 0x00 (0000ms, 0787ms total)
T0958 001:938 JLINK_WriteReg(R2, 0x20000164)  returns 0x00 (0000ms, 0787ms total)
T0958 001:938 JLINK_WriteReg(R3, 0x00000000)  returns 0x00 (0000ms, 0787ms total)
T0958 001:938 JLINK_WriteReg(R4, 0x00000000)  returns 0x00 (0000ms, 0787ms total)
T0958 001:938 JLINK_WriteReg(R5, 0x00000000)  returns 0x00 (0000ms, 0787ms total)
T0958 001:938 JLINK_WriteReg(R6, 0x00000000)  returns 0x00 (0000ms, 0787ms total)
T0958 001:938 JLINK_WriteReg(R7, 0x00000000)  returns 0x00 (0000ms, 0787ms total)
T0958 001:938 JLINK_WriteReg(R8, 0x00000000)  returns 0x00 (0000ms, 0787ms total)
T0958 001:938 JLINK_WriteReg(R9, 0x20000160)  returns 0x00 (0000ms, 0787ms total)
T0958 001:938 JLINK_WriteReg(R10, 0x00000000)  returns 0x00 (0000ms, 0787ms total)
T0958 001:938 JLINK_WriteReg(R11, 0x00000000)  returns 0x00 (0000ms, 0787ms total)
T0958 001:938 JLINK_WriteReg(R12, 0x00000000)  returns 0x00 (0000ms, 0787ms total)
T0958 001:938 JLINK_WriteReg(R13 (SP), 0x20001000)  returns 0x00 (0000ms, 0787ms total)
T0958 001:938 JLINK_WriteReg(R14, 0x20000001)  returns 0x00 (0000ms, 0787ms total)
T0958 001:938 JLINK_WriteReg(R15 (PC), 0x200000F4)  returns 0x00 (0001ms, 0788ms total)
T0958 001:939 JLINK_WriteReg(XPSR, 0x01000000)  returns 0x00 (0000ms, 0788ms total)
T0958 001:939 JLINK_WriteReg(MSP, 0x20001000)  returns 0x00 (0000ms, 0788ms total)
T0958 001:939 JLINK_WriteReg(PSP, 0x20001000)  returns 0x00 (0000ms, 0788ms total)
T0958 001:939 JLINK_WriteReg(CFBP, 0x00000000)  returns 0x00 (0000ms, 0788ms total)
T0958 001:939 JLINK_SetBPEx(Addr = 0x20000000, Type = 0xFFFFFFF2)  returns 0x00000009 (0000ms, 0788ms total)
T0958 001:939 JLINK_Go() (0001ms, 0789ms total)
T0958 001:941 JLINK_IsHalted()  returns FALSE (0000ms, 0789ms total)
T0958 002:001 JLINK_IsHalted() -- CPU_ReadMem(2 bytes @ 0x20000000)  returns TRUE (0004ms, 0793ms total)
T0958 002:005 JLINK_ReadReg(R15 (PC))  returns 0x20000000 (0000ms, 0789ms total)
T0958 002:005 JLINK_ClrBPEx(BPHandle = 0x00000009)  returns 0x00 (0000ms, 0789ms total)
T0958 002:005 JLINK_ReadReg(R0)  returns 0x00000000 (0000ms, 0789ms total)
T0958 002:006 JLINK_WriteMem(0x20000164, 0x0400 Bytes, ...) - Data: 12 68 03 68 9A 43 2C 4B 0C 33 1A 60 42 79 10 2A ... -- CPU_WriteMem(1024 bytes @ 0x20000164)  returns 0x400 (0007ms, 0796ms total)
T0958 002:013 JLINK_WriteReg(R0, 0x08003400)  returns 0x00 (0000ms, 0796ms total)
T0958 002:013 JLINK_WriteReg(R1, 0x00000400)  returns 0x00 (0000ms, 0796ms total)
T0958 002:013 JLINK_WriteReg(R2, 0x20000164)  returns 0x00 (0000ms, 0796ms total)
T0958 002:013 JLINK_WriteReg(R3, 0x00000000)  returns 0x00 (0000ms, 0796ms total)
T0958 002:013 JLINK_WriteReg(R4, 0x00000000)  returns 0x00 (0000ms, 0796ms total)
T0958 002:013 JLINK_WriteReg(R5, 0x00000000)  returns 0x00 (0000ms, 0796ms total)
T0958 002:013 JLINK_WriteReg(R6, 0x00000000)  returns 0x00 (0000ms, 0796ms total)
T0958 002:013 JLINK_WriteReg(R7, 0x00000000)  returns 0x00 (0000ms, 0796ms total)
T0958 002:013 JLINK_WriteReg(R8, 0x00000000)  returns 0x00 (0000ms, 0796ms total)
T0958 002:013 JLINK_WriteReg(R9, 0x20000160)  returns 0x00 (0000ms, 0796ms total)
T0958 002:013 JLINK_WriteReg(R10, 0x00000000)  returns 0x00 (0000ms, 0796ms total)
T0958 002:013 JLINK_WriteReg(R11, 0x00000000)  returns 0x00 (0000ms, 0796ms total)
T0958 002:013 JLINK_WriteReg(R12, 0x00000000)  returns 0x00 (0000ms, 0796ms total)
T0958 002:013 JLINK_WriteReg(R13 (SP), 0x20001000)  returns 0x00 (0000ms, 0796ms total)
T0958 002:013 JLINK_WriteReg(R14, 0x20000001)  returns 0x00 (0000ms, 0796ms total)
T0958 002:013 JLINK_WriteReg(R15 (PC), 0x200000F4)  returns 0x00 (0000ms, 0796ms total)
T0958 002:013 JLINK_WriteReg(XPSR, 0x01000000)  returns 0x00 (0000ms, 0796ms total)
T0958 002:013 JLINK_WriteReg(MSP, 0x20001000)  returns 0x00 (0000ms, 0796ms total)
T0958 002:013 JLINK_WriteReg(PSP, 0x20001000)  returns 0x00 (0000ms, 0796ms total)
T0958 002:013 JLINK_WriteReg(CFBP, 0x00000000)  returns 0x00 (0000ms, 0796ms total)
T0958 002:013 JLINK_SetBPEx(Addr = 0x20000000, Type = 0xFFFFFFF2)  returns 0x0000000A (0000ms, 0796ms total)
T0958 002:013 JLINK_Go() (0002ms, 0798ms total)
T0958 002:015 JLINK_IsHalted()  returns FALSE (0001ms, 0799ms total)
T0958 002:018 JLINK_IsHalted()  returns FALSE (0000ms, 0798ms total)
T0958 002:020 JLINK_IsHalted()  returns FALSE (0000ms, 0798ms total)
T0958 002:022 JLINK_IsHalted()  returns FALSE (0000ms, 0798ms total)
T0958 002:024 JLINK_IsHalted()  returns FALSE (0000ms, 0798ms total)
T0958 002:028 JLINK_IsHalted()  returns FALSE (0001ms, 0799ms total)
T0958 002:031 JLINK_IsHalted()  returns FALSE (0001ms, 0799ms total)
T0958 002:034 JLINK_IsHalted()  returns FALSE (0000ms, 0798ms total)
T0958 002:036 JLINK_IsHalted()  returns FALSE (0001ms, 0799ms total)
T0958 002:039 JLINK_IsHalted()  returns FALSE (0000ms, 0798ms total)
T0958 002:041 JLINK_IsHalted()  returns FALSE (0001ms, 0799ms total)
T0958 002:043 JLINK_IsHalted()  returns FALSE (0000ms, 0798ms total)
T0958 002:105 JLINK_IsHalted() -- CPU_ReadMem(2 bytes @ 0x20000000)  returns TRUE (0004ms, 0802ms total)
T0958 002:109 JLINK_ReadReg(R15 (PC))  returns 0x20000000 (0000ms, 0798ms total)
T0958 002:109 JLINK_ClrBPEx(BPHandle = 0x0000000A)  returns 0x00 (0000ms, 0798ms total)
T0958 002:109 JLINK_ReadReg(R0)  returns 0x00000000 (0000ms, 0798ms total)
T0958 002:110 JLINK_WriteMem(0x20000164, 0x0400 Bytes, ...) - Data: 70 B5 00 24 00 22 00 23 05 8C 4F F6 FF 66 35 40 ... -- CPU_WriteMem(1024 bytes @ 0x20000164)  returns 0x400 (0007ms, 0805ms total)
T0958 002:117 JLINK_WriteReg(R0, 0x08003800)  returns 0x00 (0000ms, 0805ms total)
T0958 002:117 JLINK_WriteReg(R1, 0x00000400)  returns 0x00 (0000ms, 0805ms total)
T0958 002:117 JLINK_WriteReg(R2, 0x20000164)  returns 0x00 (0000ms, 0805ms total)
T0958 002:117 JLINK_WriteReg(R3, 0x00000000)  returns 0x00 (0000ms, 0805ms total)
T0958 002:117 JLINK_WriteReg(R4, 0x00000000)  returns 0x00 (0000ms, 0805ms total)
T0958 002:117 JLINK_WriteReg(R5, 0x00000000)  returns 0x00 (0000ms, 0805ms total)
T0958 002:117 JLINK_WriteReg(R6, 0x00000000)  returns 0x00 (0000ms, 0805ms total)
T0958 002:117 JLINK_WriteReg(R7, 0x00000000)  returns 0x00 (0000ms, 0805ms total)
T0958 002:117 JLINK_WriteReg(R8, 0x00000000)  returns 0x00 (0000ms, 0805ms total)
T0958 002:117 JLINK_WriteReg(R9, 0x20000160)  returns 0x00 (0000ms, 0805ms total)
T0958 002:117 JLINK_WriteReg(R10, 0x00000000)  returns 0x00 (0000ms, 0805ms total)
T0958 002:117 JLINK_WriteReg(R11, 0x00000000)  returns 0x00 (0000ms, 0805ms total)
T0958 002:117 JLINK_WriteReg(R12, 0x00000000)  returns 0x00 (0000ms, 0805ms total)
T0958 002:117 JLINK_WriteReg(R13 (SP), 0x20001000)  returns 0x00 (0000ms, 0805ms total)
T0958 002:117 JLINK_WriteReg(R14, 0x20000001)  returns 0x00 (0000ms, 0805ms total)
T0958 002:117 JLINK_WriteReg(R15 (PC), 0x200000F4)  returns 0x00 (0000ms, 0805ms total)
T0958 002:117 JLINK_WriteReg(XPSR, 0x01000000)  returns 0x00 (0000ms, 0805ms total)
T0958 002:117 JLINK_WriteReg(MSP, 0x20001000)  returns 0x00 (0000ms, 0805ms total)
T0958 002:117 JLINK_WriteReg(PSP, 0x20001000)  returns 0x00 (0001ms, 0806ms total)
T0958 002:118 JLINK_WriteReg(CFBP, 0x00000000)  returns 0x00 (0000ms, 0806ms total)
T0958 002:118 JLINK_SetBPEx(Addr = 0x20000000, Type = 0xFFFFFFF2)  returns 0x0000000B (0000ms, 0806ms total)
T0958 002:118 JLINK_Go() (0002ms, 0808ms total)
T0958 002:120 JLINK_IsHalted()  returns FALSE (0001ms, 0809ms total)
T0958 002:123 JLINK_IsHalted()  returns FALSE (0001ms, 0809ms total)
T0958 002:126 JLINK_IsHalted()  returns FALSE (0000ms, 0808ms total)
T0958 002:128 JLINK_IsHalted()  returns FALSE (0000ms, 0808ms total)
T0958 002:130 JLINK_IsHalted()  returns FALSE (0000ms, 0808ms total)
T0958 002:132 JLINK_IsHalted()  returns FALSE (0000ms, 0808ms total)
T0958 002:134 JLINK_IsHalted()  returns FALSE (0000ms, 0808ms total)
T0958 002:136 JLINK_IsHalted()  returns FALSE (0000ms, 0808ms total)
T0958 002:139 JLINK_IsHalted()  returns FALSE (0000ms, 0808ms total)
T0958 002:141 JLINK_IsHalted()  returns FALSE (0000ms, 0808ms total)
T0958 002:143 JLINK_IsHalted()  returns FALSE (0000ms, 0808ms total)
T0958 002:145 JLINK_IsHalted()  returns FALSE (0000ms, 0808ms total)
T0958 002:147 JLINK_IsHalted()  returns FALSE (0000ms, 0808ms total)
T0958 002:149 JLINK_IsHalted()  returns FALSE (0000ms, 0808ms total)
T0958 002:151 JLINK_IsHalted() -- CPU_ReadMem(2 bytes @ 0x20000000)  returns TRUE (0003ms, 0811ms total)
T0958 002:154 JLINK_ReadReg(R15 (PC))  returns 0x20000000 (0000ms, 0808ms total)
T0958 002:154 JLINK_ClrBPEx(BPHandle = 0x0000000B)  returns 0x00 (0000ms, 0808ms total)
T0958 002:154 JLINK_ReadReg(R0)  returns 0x00000000 (0000ms, 0808ms total)
T0958 002:156 JLINK_WriteMem(0x20000164, 0x0400 Bytes, ...) - Data: FF F7 FB FE E1 88 28 46 FF F7 EE FE 09 E0 23 89 ... -- CPU_WriteMem(1024 bytes @ 0x20000164)  returns 0x400 (0007ms, 0815ms total)
T0958 002:163 JLINK_WriteReg(R0, 0x08003C00)  returns 0x00 (0000ms, 0815ms total)
T0958 002:163 JLINK_WriteReg(R1, 0x00000400)  returns 0x00 (0000ms, 0815ms total)
T0958 002:163 JLINK_WriteReg(R2, 0x20000164)  returns 0x00 (0000ms, 0815ms total)
T0958 002:163 JLINK_WriteReg(R3, 0x00000000)  returns 0x00 (0000ms, 0815ms total)
T0958 002:163 JLINK_WriteReg(R4, 0x00000000)  returns 0x00 (0000ms, 0815ms total)
T0958 002:163 JLINK_WriteReg(R5, 0x00000000)  returns 0x00 (0000ms, 0815ms total)
T0958 002:163 JLINK_WriteReg(R6, 0x00000000)  returns 0x00 (0000ms, 0815ms total)
T0958 002:163 JLINK_WriteReg(R7, 0x00000000)  returns 0x00 (0000ms, 0815ms total)
T0958 002:163 JLINK_WriteReg(R8, 0x00000000)  returns 0x00 (0000ms, 0815ms total)
T0958 002:163 JLINK_WriteReg(R9, 0x20000160)  returns 0x00 (0000ms, 0815ms total)
T0958 002:163 JLINK_WriteReg(R10, 0x00000000)  returns 0x00 (0000ms, 0815ms total)
T0958 002:163 JLINK_WriteReg(R11, 0x00000000)  returns 0x00 (0000ms, 0815ms total)
T0958 002:163 JLINK_WriteReg(R12, 0x00000000)  returns 0x00 (0000ms, 0815ms total)
T0958 002:163 JLINK_WriteReg(R13 (SP), 0x20001000)  returns 0x00 (0000ms, 0815ms total)
T0958 002:163 JLINK_WriteReg(R14, 0x20000001)  returns 0x00 (0000ms, 0815ms total)
T0958 002:163 JLINK_WriteReg(R15 (PC), 0x200000F4)  returns 0x00 (0000ms, 0815ms total)
T0958 002:163 JLINK_WriteReg(XPSR, 0x01000000)  returns 0x00 (0000ms, 0815ms total)
T0958 002:163 JLINK_WriteReg(MSP, 0x20001000)  returns 0x00 (0000ms, 0815ms total)
T0958 002:163 JLINK_WriteReg(PSP, 0x20001000)  returns 0x00 (0000ms, 0815ms total)
T0958 002:163 JLINK_WriteReg(CFBP, 0x00000000)  returns 0x00 (0000ms, 0815ms total)
T0958 002:163 JLINK_SetBPEx(Addr = 0x20000000, Type = 0xFFFFFFF2)  returns 0x0000000C (0000ms, 0815ms total)
T0958 002:163 JLINK_Go() (0002ms, 0817ms total)
T0958 002:165 JLINK_IsHalted()  returns FALSE (0001ms, 0818ms total)
T0958 002:221 JLINK_IsHalted() -- CPU_ReadMem(2 bytes @ 0x20000000)  returns TRUE (0004ms, 0821ms total)
T0958 002:225 JLINK_ReadReg(R15 (PC))  returns 0x20000000 (0000ms, 0817ms total)
T0958 002:225 JLINK_ClrBPEx(BPHandle = 0x0000000C)  returns 0x00 (0000ms, 0817ms total)
T0958 002:225 JLINK_ReadReg(R0)  returns 0x00000000 (0000ms, 0817ms total)
T0958 002:226 JLINK_WriteMem(0x20000164, 0x0400 Bytes, ...) - Data: 01 83 70 47 0A 46 00 21 81 8B 4F F6 FB 73 19 40 ... -- CPU_WriteMem(1024 bytes @ 0x20000164)  returns 0x400 (0007ms, 0824ms total)
T0958 002:233 JLINK_WriteReg(R0, 0x08004000)  returns 0x00 (0000ms, 0824ms total)
T0958 002:233 JLINK_WriteReg(R1, 0x00000400)  returns 0x00 (0000ms, 0824ms total)
T0958 002:233 JLINK_WriteReg(R2, 0x20000164)  returns 0x00 (0000ms, 0824ms total)
T0958 002:233 JLINK_WriteReg(R3, 0x00000000)  returns 0x00 (0000ms, 0824ms total)
T0958 002:233 JLINK_WriteReg(R4, 0x00000000)  returns 0x00 (0000ms, 0824ms total)
T0958 002:233 JLINK_WriteReg(R5, 0x00000000)  returns 0x00 (0000ms, 0824ms total)
T0958 002:233 JLINK_WriteReg(R6, 0x00000000)  returns 0x00 (0000ms, 0824ms total)
T0958 002:233 JLINK_WriteReg(R7, 0x00000000)  returns 0x00 (0001ms, 0825ms total)
T0958 002:234 JLINK_WriteReg(R8, 0x00000000)  returns 0x00 (0000ms, 0825ms total)
T0958 002:234 JLINK_WriteReg(R9, 0x20000160)  returns 0x00 (0000ms, 0825ms total)
T0958 002:234 JLINK_WriteReg(R10, 0x00000000)  returns 0x00 (0000ms, 0825ms total)
T0958 002:234 JLINK_WriteReg(R11, 0x00000000)  returns 0x00 (0000ms, 0825ms total)
T0958 002:234 JLINK_WriteReg(R12, 0x00000000)  returns 0x00 (0000ms, 0825ms total)
T0958 002:234 JLINK_WriteReg(R13 (SP), 0x20001000)  returns 0x00 (0000ms, 0825ms total)
T0958 002:234 JLINK_WriteReg(R14, 0x20000001)  returns 0x00 (0000ms, 0825ms total)
T0958 002:234 JLINK_WriteReg(R15 (PC), 0x200000F4)  returns 0x00 (0000ms, 0825ms total)
T0958 002:234 JLINK_WriteReg(XPSR, 0x01000000)  returns 0x00 (0000ms, 0825ms total)
T0958 002:234 JLINK_WriteReg(MSP, 0x20001000)  returns 0x00 (0000ms, 0825ms total)
T0958 002:234 JLINK_WriteReg(PSP, 0x20001000)  returns 0x00 (0000ms, 0825ms total)
T0958 002:234 JLINK_WriteReg(CFBP, 0x00000000)  returns 0x00 (0000ms, 0825ms total)
T0958 002:234 JLINK_SetBPEx(Addr = 0x20000000, Type = 0xFFFFFFF2)  returns 0x0000000D (0000ms, 0825ms total)
T0958 002:234 JLINK_Go() (0002ms, 0827ms total)
T0958 002:236 JLINK_IsHalted()  returns FALSE (0001ms, 0828ms total)
T0958 002:239 JLINK_IsHalted()  returns FALSE (0000ms, 0827ms total)
T0958 002:241 JLINK_IsHalted()  returns FALSE (0000ms, 0827ms total)
T0958 002:243 JLINK_IsHalted()  returns FALSE (0000ms, 0827ms total)
T0958 002:245 JLINK_IsHalted()  returns FALSE (0000ms, 0827ms total)
T0958 002:247 JLINK_IsHalted()  returns FALSE (0000ms, 0827ms total)
T0958 002:249 JLINK_IsHalted()  returns FALSE (0000ms, 0827ms total)
T0958 002:251 JLINK_IsHalted()  returns FALSE (0000ms, 0827ms total)
T0958 002:253 JLINK_IsHalted()  returns FALSE (0001ms, 0828ms total)
T0958 002:256 JLINK_IsHalted()  returns FALSE (0000ms, 0827ms total)
T0958 002:258 JLINK_IsHalted()  returns FALSE (0000ms, 0827ms total)
T0958 002:260 JLINK_IsHalted()  returns FALSE (0000ms, 0827ms total)
T0958 002:315 JLINK_IsHalted() -- CPU_ReadMem(2 bytes @ 0x20000000)  returns TRUE (0004ms, 0831ms total)
T0958 002:319 JLINK_ReadReg(R15 (PC))  returns 0x20000000 (0000ms, 0827ms total)
T0958 002:319 JLINK_ClrBPEx(BPHandle = 0x0000000D)  returns 0x00 (0000ms, 0827ms total)
T0958 002:319 JLINK_ReadReg(R0)  returns 0x00000000 (0000ms, 0827ms total)
T0958 002:320 JLINK_WriteMem(0x20000164, 0x0400 Bytes, ...) - Data: 00 69 40 F0 04 00 B5 49 08 61 08 46 00 69 40 F0 ... -- CPU_WriteMem(1024 bytes @ 0x20000164)  returns 0x400 (0007ms, 0834ms total)
T0958 002:327 JLINK_WriteReg(R0, 0x08004400)  returns 0x00 (0000ms, 0834ms total)
T0958 002:327 JLINK_WriteReg(R1, 0x00000400)  returns 0x00 (0000ms, 0834ms total)
T0958 002:327 JLINK_WriteReg(R2, 0x20000164)  returns 0x00 (0000ms, 0834ms total)
T0958 002:327 JLINK_WriteReg(R3, 0x00000000)  returns 0x00 (0000ms, 0834ms total)
T0958 002:327 JLINK_WriteReg(R4, 0x00000000)  returns 0x00 (0000ms, 0834ms total)
T0958 002:327 JLINK_WriteReg(R5, 0x00000000)  returns 0x00 (0000ms, 0834ms total)
T0958 002:327 JLINK_WriteReg(R6, 0x00000000)  returns 0x00 (0000ms, 0834ms total)
T0958 002:327 JLINK_WriteReg(R7, 0x00000000)  returns 0x00 (0000ms, 0834ms total)
T0958 002:327 JLINK_WriteReg(R8, 0x00000000)  returns 0x00 (0000ms, 0834ms total)
T0958 002:327 JLINK_WriteReg(R9, 0x20000160)  returns 0x00 (0000ms, 0834ms total)
T0958 002:327 JLINK_WriteReg(R10, 0x00000000)  returns 0x00 (0000ms, 0834ms total)
T0958 002:327 JLINK_WriteReg(R11, 0x00000000)  returns 0x00 (0000ms, 0834ms total)
T0958 002:327 JLINK_WriteReg(R12, 0x00000000)  returns 0x00 (0000ms, 0834ms total)
T0958 002:327 JLINK_WriteReg(R13 (SP), 0x20001000)  returns 0x00 (0000ms, 0834ms total)
T0958 002:327 JLINK_WriteReg(R14, 0x20000001)  returns 0x00 (0000ms, 0834ms total)
T0958 002:327 JLINK_WriteReg(R15 (PC), 0x200000F4)  returns 0x00 (0000ms, 0834ms total)
T0958 002:327 JLINK_WriteReg(XPSR, 0x01000000)  returns 0x00 (0000ms, 0834ms total)
T0958 002:327 JLINK_WriteReg(MSP, 0x20001000)  returns 0x00 (0000ms, 0834ms total)
T0958 002:327 JLINK_WriteReg(PSP, 0x20001000)  returns 0x00 (0000ms, 0834ms total)
T0958 002:327 JLINK_WriteReg(CFBP, 0x00000000)  returns 0x00 (0000ms, 0834ms total)
T0958 002:327 JLINK_SetBPEx(Addr = 0x20000000, Type = 0xFFFFFFF2)  returns 0x0000000E (0000ms, 0834ms total)
T0958 002:327 JLINK_Go() (0002ms, 0836ms total)
T0958 002:329 JLINK_IsHalted()  returns FALSE (0001ms, 0837ms total)
T0958 002:335 JLINK_IsHalted()  returns FALSE (0000ms, 0836ms total)
T0958 002:337 JLINK_IsHalted()  returns FALSE (0000ms, 0836ms total)
T0958 002:339 JLINK_IsHalted()  returns FALSE (0000ms, 0836ms total)
T0958 002:345 JLINK_IsHalted()  returns FALSE (0000ms, 0836ms total)
T0958 002:347 JLINK_IsHalted()  returns FALSE (0000ms, 0836ms total)
T0958 002:350 JLINK_IsHalted()  returns FALSE (0000ms, 0836ms total)
T0958 002:352 JLINK_IsHalted()  returns FALSE (0000ms, 0836ms total)
T0958 002:354 JLINK_IsHalted()  returns FALSE (0001ms, 0837ms total)
T0958 002:357 JLINK_IsHalted()  returns FALSE (0000ms, 0836ms total)
T0958 002:359 JLINK_IsHalted()  returns FALSE (0000ms, 0836ms total)
T0958 002:361 JLINK_IsHalted() -- CPU_ReadMem(2 bytes @ 0x20000000)  returns TRUE (0003ms, 0839ms total)
T0958 002:364 JLINK_ReadReg(R15 (PC))  returns 0x20000000 (0000ms, 0836ms total)
T0958 002:364 JLINK_ClrBPEx(BPHandle = 0x0000000E)  returns 0x00 (0000ms, 0836ms total)
T0958 002:364 JLINK_ReadReg(R0)  returns 0x00000000 (0000ms, 0836ms total)
T0958 002:365 JLINK_WriteMem(0x20000164, 0x0400 Bytes, ...) - Data: 20 01 09 B1 01 20 00 E0 00 20 70 47 29 B1 1E 4A ... -- CPU_WriteMem(1024 bytes @ 0x20000164)  returns 0x400 (0007ms, 0843ms total)
T0958 002:372 JLINK_WriteReg(R0, 0x08004800)  returns 0x00 (0000ms, 0843ms total)
T0958 002:372 JLINK_WriteReg(R1, 0x00000400)  returns 0x00 (0000ms, 0843ms total)
T0958 002:372 JLINK_WriteReg(R2, 0x20000164)  returns 0x00 (0000ms, 0843ms total)
T0958 002:372 JLINK_WriteReg(R3, 0x00000000)  returns 0x00 (0000ms, 0843ms total)
T0958 002:372 JLINK_WriteReg(R4, 0x00000000)  returns 0x00 (0000ms, 0843ms total)
T0958 002:372 JLINK_WriteReg(R5, 0x00000000)  returns 0x00 (0000ms, 0843ms total)
T0958 002:372 JLINK_WriteReg(R6, 0x00000000)  returns 0x00 (0000ms, 0843ms total)
T0958 002:372 JLINK_WriteReg(R7, 0x00000000)  returns 0x00 (0000ms, 0843ms total)
T0958 002:372 JLINK_WriteReg(R8, 0x00000000)  returns 0x00 (0000ms, 0843ms total)
T0958 002:372 JLINK_WriteReg(R9, 0x20000160)  returns 0x00 (0000ms, 0843ms total)
T0958 002:372 JLINK_WriteReg(R10, 0x00000000)  returns 0x00 (0000ms, 0843ms total)
T0958 002:373 JLINK_WriteReg(R11, 0x00000000)  returns 0x00 (0000ms, 0843ms total)
T0958 002:373 JLINK_WriteReg(R12, 0x00000000)  returns 0x00 (0000ms, 0843ms total)
T0958 002:373 JLINK_WriteReg(R13 (SP), 0x20001000)  returns 0x00 (0000ms, 0843ms total)
T0958 002:373 JLINK_WriteReg(R14, 0x20000001)  returns 0x00 (0000ms, 0843ms total)
T0958 002:373 JLINK_WriteReg(R15 (PC), 0x200000F4)  returns 0x00 (0000ms, 0843ms total)
T0958 002:373 JLINK_WriteReg(XPSR, 0x01000000)  returns 0x00 (0000ms, 0843ms total)
T0958 002:373 JLINK_WriteReg(MSP, 0x20001000)  returns 0x00 (0000ms, 0843ms total)
T0958 002:373 JLINK_WriteReg(PSP, 0x20001000)  returns 0x00 (0000ms, 0843ms total)
T0958 002:373 JLINK_WriteReg(CFBP, 0x00000000)  returns 0x00 (0000ms, 0843ms total)
T0958 002:373 JLINK_SetBPEx(Addr = 0x20000000, Type = 0xFFFFFFF2)  returns 0x0000000F (0000ms, 0843ms total)
T0958 002:373 JLINK_Go() (0002ms, 0845ms total)
T0958 002:375 JLINK_IsHalted()  returns FALSE (0001ms, 0846ms total)
T0958 002:433 JLINK_IsHalted() -- CPU_ReadMem(2 bytes @ 0x20000000)  returns TRUE (0004ms, 0849ms total)
T0958 002:437 JLINK_ReadReg(R15 (PC))  returns 0x20000000 (0000ms, 0845ms total)
T0958 002:437 JLINK_ClrBPEx(BPHandle = 0x0000000F)  returns 0x00 (0000ms, 0845ms total)
T0958 002:437 JLINK_ReadReg(R0)  returns 0x00000000 (0000ms, 0845ms total)
T0958 002:438 JLINK_WriteMem(0x20000164, 0x0400 Bytes, ...) - Data: 3A FA 08 BD 70 B5 04 46 0D 46 2A 46 21 46 E8 48 ... -- CPU_WriteMem(1024 bytes @ 0x20000164)  returns 0x400 (0006ms, 0851ms total)
T0958 002:445 JLINK_WriteReg(R0, 0x08004C00)  returns 0x00 (0000ms, 0852ms total)
T0958 002:445 JLINK_WriteReg(R1, 0x00000400)  returns 0x00 (0000ms, 0852ms total)
T0958 002:445 JLINK_WriteReg(R2, 0x20000164)  returns 0x00 (0000ms, 0852ms total)
T0958 002:445 JLINK_WriteReg(R3, 0x00000000)  returns 0x00 (0000ms, 0852ms total)
T0958 002:445 JLINK_WriteReg(R4, 0x00000000)  returns 0x00 (0000ms, 0852ms total)
T0958 002:445 JLINK_WriteReg(R5, 0x00000000)  returns 0x00 (0000ms, 0852ms total)
T0958 002:445 JLINK_WriteReg(R6, 0x00000000)  returns 0x00 (0000ms, 0852ms total)
T0958 002:445 JLINK_WriteReg(R7, 0x00000000)  returns 0x00 (0000ms, 0852ms total)
T0958 002:445 JLINK_WriteReg(R8, 0x00000000)  returns 0x00 (0000ms, 0852ms total)
T0958 002:445 JLINK_WriteReg(R9, 0x20000160)  returns 0x00 (0000ms, 0852ms total)
